
**** 11/15/21 20:00:32 ******* PSpice Lite (March 2016) ******* ID# 10813 ****

 ** Profile: "SCHEMATIC1-sim1"  [ C:\SPB_Data\Peak Detector-PSpiceFiles\SCHEMATIC1\sim1.sim ] 


 ****     CIRCUIT DESCRIPTION


******************************************************************************




** Creating circuit file "sim1.cir" 
** WARNING: THIS AUTOMATICALLY GENERATED FILE MAY BE OVERWRITTEN BY SUBSEQUENT SIMULATIONS

*Libraries: 
* Profile Libraries :
* Local Libraries :
* From [PSPICE NETLIST] section of C:\SPB_DATA\cdssetup\OrCAD_PSpice\17.2.0\PSpice.ini file:
.lib "nomd.lib" 

*Analysis directives: 
.TRAN  0 4Ms 0 
.OPTIONS ADVCONV
.PROBE64 V(alias(*)) I(alias(*)) W(alias(*)) D(alias(*)) NOISE(alias(*)) 
.INC "..\SCHEMATIC1.net" 



**** INCLUDING SCHEMATIC1.net ****
* source PEAK DETECTOR
.EXTERNAL OUTPUT VCC
.EXTERNAL OUTPUT VEE
X_U1A         N00401 N00411 VCC VEE N00429 TL062/301/TI
V_V3         N00401 0  
+SIN 0V 1V 1000 0 0 0
D_D1         N00429 N00411 D1N4148 
R_R1         0 N00411 100k
C_C1         0 N00411 Cbreak 470n 
V_V4         VCC 0 9V
V_V5         VEE 0 -9V

**** RESUMING sim1.cir ****
.END

**** 11/15/21 20:00:32 ******* PSpice Lite (March 2016) ******* ID# 10813 ****

 ** Profile: "SCHEMATIC1-sim1"  [ C:\SPB_Data\Peak Detector-PSpiceFiles\SCHEMATIC1\sim1.sim ] 


 ****     Diode MODEL PARAMETERS


******************************************************************************




               D1N4148         X_U1A.DX        
          IS    2.682000E-09  800.000000E-18 
           N    1.836                        
         ISR    1.565000E-09                 
         IKF     .04417                      
          BV  100                            
         IBV  100.000000E-06                 
          RS     .5664                       
          TT   11.540000E-09                 
         CJO    4.000000E-12                 
          VJ     .5                          
           M     .3333                       


**** 11/15/21 20:00:32 ******* PSpice Lite (March 2016) ******* ID# 10813 ****

 ** Profile: "SCHEMATIC1-sim1"  [ C:\SPB_Data\Peak Detector-PSpiceFiles\SCHEMATIC1\sim1.sim ] 


 ****     Junction FET MODEL PARAMETERS


******************************************************************************




               X_U1A.JX        
               PJF             
         VTO   -1            
        BETA  100.500000E-06 
          IS   15.000000E-12 


**** 11/15/21 20:00:32 ******* PSpice Lite (March 2016) ******* ID# 10813 ****

 ** Profile: "SCHEMATIC1-sim1"  [ C:\SPB_Data\Peak Detector-PSpiceFiles\SCHEMATIC1\sim1.sim ] 


 ****     Capacitor MODEL PARAMETERS


******************************************************************************




               Cbreak          
           C    1            


**** 11/15/21 20:00:32 ******* PSpice Lite (March 2016) ******* ID# 10813 ****

 ** Profile: "SCHEMATIC1-sim1"  [ C:\SPB_Data\Peak Detector-PSpiceFiles\SCHEMATIC1\sim1.sim ] 


 ****     INITIAL TRANSIENT SOLUTION       TEMPERATURE =   27.000 DEG C


******************************************************************************



 NODE   VOLTAGE     NODE   VOLTAGE     NODE   VOLTAGE     NODE   VOLTAGE


(  VCC)    9.0000  (  VEE)   -9.0000  (N00401)    0.0000 (N00411) 7.430E-06     

(N00429)     .0013 (X_U1A.6)-2.041E-06                   (X_U1A.7)     .0013    

(X_U1A.8)     .0013                   (X_U1A.9)    0.0000                       

(X_U1A.10)    -.4883                  (X_U1A.11)   -8.7208                      

(X_U1A.12)   -8.7208                  (X_U1A.53)    6.8000                      

(X_U1A.54)   -6.8000                  (X_U1A.90) 113.5E-09                      

(X_U1A.91)   15.0000                  (X_U1A.92)  -15.0000                      

(X_U1A.99)    0.0000                  




    VOLTAGE SOURCE CURRENTS
    NAME         CURRENT

    V_V3        -3.921E-11
    V_V4        -1.725E-04
    V_V5         1.726E-04
    X_U1A.VB    -2.041E-11
    X_U1A.VC     6.800E-12
    X_U1A.VE     6.802E-12
    X_U1A.VLIM   1.135E-10
    X_U1A.VLP   -1.500E-11
    X_U1A.VLN   -1.500E-11

    TOTAL POWER DISSIPATION   3.11E-03  WATTS



          JOB CONCLUDED

**** 11/15/21 20:00:32 ******* PSpice Lite (March 2016) ******* ID# 10813 ****

 ** Profile: "SCHEMATIC1-sim1"  [ C:\SPB_Data\Peak Detector-PSpiceFiles\SCHEMATIC1\sim1.sim ] 


 ****     JOB STATISTICS SUMMARY


******************************************************************************



  Total job time (using Solver 1)   =         .09
